T6510 000:076.280   SEGGER J-Link V7.62 Log File
T6510 000:077.026   DLL Compiled: Feb 16 2022 16:05:10
T6510 000:077.036   Logging started @ 2024-01-17 05:55
T6510 000:077.045 - 77.049ms
T6510 000:077.207 JLINK_SetWarnOutHandler(...)
T6510 000:077.398 - 0.196ms
T6510 000:077.411 JLINK_OpenEx(...)
T6510 000:078.343   Firmware: J-Link V9 compiled May  7 2021 16:26:12
T6510 000:078.610   Firmware: J-Link V9 compiled May  7 2021 16:26:12
T6510 000:078.719   Decompressing FW timestamp took 90 us
T6510 000:084.647   Hardware: V9.60
T6510 000:084.667   S/N: 69667243
T6510 000:084.679   OEM: SEGGER
T6510 000:084.692   Feature(s): RDI, GDB, FlashDL, FlashBP, JFlash
T6510 000:085.762   TELNET listener socket opened on port 19021
T6510 000:086.077   WEBSRV WEBSRV_Init(): Starting webserver thread(s)
T6510 000:086.208   WEBSRV Webserver running on local port 19080
T6510 000:117.847 - 40.451ms returns "O.K."
T6510 000:118.214 JLINK_SetErrorOutHandler(...)
T6510 000:118.222 - 0.012ms
T6510 000:118.501 JLINK_ExecCommand("ProjectFile = "D:\RuiDe\soft\VIB_RD_APP_Heat_PWM\Keil_Project\JLinkSettings.ini"", ...). 
T6510 000:137.944   Ref file found at: C:\Keil_v5\ARM\Segger\JLinkDevices.ref
T6510 000:138.244   XML referenced by ref file: C:\Program Files\SEGGER\JLink\JLinkDevices.xml
T6510 000:139.793   C:\Program Files\SEGGER\JLink\JLinkDevices.xml evaluated successfully.
T6510 000:259.291   Device "S32K116" selected.
T6510 000:259.844 - 141.352ms returns 0x00
T6510 000:264.730 JLINK_ExecCommand("Device = S32K116xxxxMFMx", ...). 
T6510 000:269.809   Device "S32K116" selected.
T6510 000:270.275 - 5.535ms returns 0x00
T6510 000:270.291 JLINK_ExecCommand("DisableConnectionTimeout", ...). 
T6510 000:270.302 - 0.005ms returns 0x01
T6510 000:270.312 JLINK_GetHardwareVersion()
T6510 000:270.320 - 0.011ms returns 96000
T6510 000:270.331 JLINK_GetDLLVersion()
T6510 000:270.339 - 0.011ms returns 76200
T6510 000:270.348 JLINK_GetOEMString(...)
T6510 000:270.357 JLINK_GetFirmwareString(...)
T6510 000:270.365 - 0.011ms
T6510 000:284.474 JLINK_GetDLLVersion()
T6510 000:284.487 - 0.017ms returns 76200
T6510 000:284.497 JLINK_GetCompileDateTime()
T6510 000:284.504 - 0.010ms
T6510 000:297.000 JLINK_GetFirmwareString(...)
T6510 000:297.021 - 0.024ms
T6510 000:304.346 JLINK_GetHardwareVersion()
T6510 000:304.363 - 0.021ms returns 96000
T6510 000:313.759 JLINK_GetSN()
T6510 000:313.775 - 0.019ms returns 69667243
T6510 000:320.036 JLINK_GetOEMString(...)
T6510 000:334.748 JLINK_TIF_Select(JLINKARM_TIF_SWD)
T6510 000:335.661 - 0.922ms returns 0x00
T6510 000:335.678 JLINK_HasError()
T6510 000:335.864 JLINK_SetSpeed(5000)
T6510 000:336.079 - 0.220ms
T6510 000:336.091 JLINK_GetId()
T6510 000:346.200   InitTarget() start
T6510 000:346.222    J-Link Script File: Executing InitTarget()
T6510 000:407.503   InitTarget() end
T6510 000:414.910   Found SW-DP with ID 0x0BC11477
T6510 000:423.786   DPIDR: 0x0BC11477
T6510 000:431.015   CoreSight SoC-400 or earlier
T6510 000:438.395   Scanning AP map to find all available APs
T6510 000:445.555   AP[2]: Stopped AP scan as end of AP map has been reached
T6510 000:452.079   AP[0]: AHB-AP (IDR: 0x04770031)
T6510 000:458.520   AP[1]: JTAG-AP (IDR: 0x001C0020)
T6510 000:465.642   Iterating through AP map to find AHB-AP to use
T6510 000:472.766   AP[0]: Core found
T6510 000:482.119   AP[0]: AHB-AP ROM base: 0xF0002000
T6510 000:489.069   CPUID register: 0x410CC601. Implementer code: 0x41 (ARM)
T6510 000:495.683   Found Cortex-M0 r0p1, Little endian.
T6510 000:601.693   -- Max. mem block: 0x00010C40
T6510 000:602.219   CPU_ReadMem(4 bytes @ 0xE000EDF0)
T6510 000:602.483   CPU_WriteMem(4 bytes @ 0xE000EDF0)
T6510 000:602.730   CPU_ReadMem(4 bytes @ 0xE0002000)
T6510 000:610.839   FPUnit: 2 code (BP) slots and 0 literal slots
T6510 000:610.886   CPU_ReadMem(4 bytes @ 0xE000EDFC)
T6510 000:611.137   CPU_WriteMem(4 bytes @ 0xE000EDFC)
T6510 000:611.371   CPU_ReadMem(4 bytes @ 0xE0001000)
T6510 000:611.613   CPU_WriteMem(4 bytes @ 0xE0001000)
T6510 000:619.806   CoreSight components:
T6510 000:626.465   ROMTbl[0] @ F0002000
T6510 000:626.485   CPU_ReadMem(64 bytes @ 0xF0002000)
T6510 000:626.968   CPU_ReadMem(32 bytes @ 0xF0000FE0)
T6510 000:633.762   [0][0]: F0000000 CID B105900D PID 001BB932 MTB-M0+
T6510 000:633.781   CPU_ReadMem(32 bytes @ 0xF0001FE0)
T6510 000:643.594   [0][1]: F0001000 CID B105900D PID 0008E000 MTBDWT
T6510 000:643.624   CPU_ReadMem(32 bytes @ 0xE00FFFE0)
T6510 000:650.896   [0][2]: E00FF000 CID B105100D PID 000BB4C0 ROM Table
T6510 000:656.925   ROMTbl[1] @ E00FF000
T6510 000:656.950   CPU_ReadMem(64 bytes @ 0xE00FF000)
T6510 000:657.516   CPU_ReadMem(32 bytes @ 0xE000EFE0)
T6510 000:665.117   [1][0]: E000E000 CID B105E00D PID 000BB008 SCS
T6510 000:665.136   CPU_ReadMem(32 bytes @ 0xE0001FE0)
T6510 000:673.561   [1][1]: E0001000 CID B105E00D PID 000BB00A DWT
T6510 000:673.586   CPU_ReadMem(32 bytes @ 0xE0002FE0)
T6510 000:680.244   [1][2]: E0002000 CID B105E00D PID 000BB00B FPB
T6510 000:686.569   Initializing 15360 bytes work RAM @ 0x1FFFFC00
T6510 000:686.829   CPU is running
T6510 000:686.847   CPU_WriteMem(4 bytes @ 0xE000EDF0)
T6510 000:687.090   CPU is running
T6510 000:687.103   CPU_WriteMem(4 bytes @ 0xE000EDFC)
T6510 000:693.328   Reset: Halt core after reset via DEMCR.VC_CORERESET.
T6510 000:700.661   Reset: Reset device via AIRCR.SYSRESETREQ.
T6510 000:700.682   CPU is running
T6510 000:700.696   CPU_WriteMem(4 bytes @ 0xE000ED0C)
T6510 000:756.998   CPU_ReadMem(4 bytes @ 0xE000EDF0)
T6510 000:757.324   CPU_ReadMem(4 bytes @ 0xE000EDF0)
T6510 000:757.612   CPU is running
T6510 000:757.639   CPU_WriteMem(4 bytes @ 0xE000EDF0)
T6510 000:757.879   CPU is running
T6510 000:757.896   CPU_WriteMem(4 bytes @ 0xE000EDFC)
T6510 000:771.568   CPU_ReadMem(4 bytes @ 0xE000EDF0)
T6510 000:774.061   CPU_WriteMem(4 bytes @ 0xE0002000)
T6510 000:774.309   CPU_ReadMem(4 bytes @ 0xE000EDFC)
T6510 000:774.531   CPU_ReadMem(4 bytes @ 0xE0001000)
T6510 000:774.760   CPU_WriteMem(4 bytes @ 0xE0001000)
T6510 000:775.042   CPU_WriteMem(15360 bytes @ 0x1FFFFC00)
T6510 000:821.369 - 485.292ms returns 0x0BC11477
T6510 000:821.399 JLINK_GetDLLVersion()
T6510 000:821.408 - 0.012ms returns 76200
T6510 000:821.420 JLINK_CORE_GetFound()
T6510 000:821.428 - 0.012ms returns 0x60000FF
T6510 000:821.440 JLINK_GetDebugInfo(0x100 = JLINKARM_ROM_TABLE_ADDR_INDEX)
T6510 000:821.450   Value=0xF0002000
T6510 000:821.462 - 0.026ms returns 0
T6510 000:829.073 JLINK_GetDebugInfo(0x100 = JLINKARM_ROM_TABLE_ADDR_INDEX)
T6510 000:829.096   Value=0xF0002000
T6510 000:829.109 - 0.040ms returns 0
T6510 000:829.120 JLINK_GetDebugInfo(0x101 = JLINKARM_DEBUG_INFO_ETM_ADDR_INDEX)
T6510 000:829.129   Value=0x00000000
T6510 000:829.142 - 0.025ms returns 0
T6510 000:829.156 JLINK_ReadMem(0xE0041FF0, 0x10 Bytes, ...)
T6510 000:829.178   CPU_ReadMem(16 bytes @ 0xE0041FF0)
T6510 000:829.497   Data:  00 00 00 00 00 00 00 00 00 00 00 00 00 00 00 00
T6510 000:829.513 - 0.361ms returns 0
T6510 000:829.525 JLINK_GetDebugInfo(0x102 = JLINKARM_DEBUG_INFO_MTB_ADDR_INDEX)
T6510 000:829.534   Value=0xF0000000
T6510 000:829.546 - 0.025ms returns 0
T6510 000:829.557 JLINK_CORE_GetFound()
T6510 000:829.567 - 0.014ms returns 0x60000FF
T6510 000:829.579 JLINK_GetDebugInfo(0x103 = JLINKARM_DEBUG_INFO_TPIU_ADDR_INDEX)
T6510 000:829.589   Value=0x00000000
T6510 000:829.604 - 0.029ms returns 0
T6510 000:829.616 JLINK_ReadMem(0xE0040FF0, 0x10 Bytes, ...)
T6510 000:829.630   CPU_ReadMem(16 bytes @ 0xE0040FF0)
T6510 000:829.906   Data:  00 00 00 00 00 00 00 00 00 00 00 00 00 00 00 00
T6510 000:829.926 - 0.314ms returns 0
T6510 000:829.939 JLINK_GetDebugInfo(0x104 = JLINKARM_DEBUG_INFO_ITM_ADDR_INDEX)
T6510 000:829.948   Value=0xE0000000
T6510 000:829.961 - 0.026ms returns 0
T6510 000:829.971 JLINK_GetDebugInfo(0x105 = JLINKARM_DEBUG_INFO_DWT_ADDR_INDEX)
T6510 000:829.980   Value=0xE0001000
T6510 000:829.993 - 0.025ms returns 0
T6510 000:830.003 JLINK_GetDebugInfo(0x106 = JLINKARM_DEBUG_INFO_FPB_ADDR_INDEX)
T6510 000:830.011   Value=0xE0002000
T6510 000:830.024 - 0.029ms returns 0
T6510 000:830.039 JLINK_GetDebugInfo(0x107 = JLINKARM_DEBUG_INFO_NVIC_ADDR_INDEX)
T6510 000:830.048   Value=0xE000E000
T6510 000:830.061 - 0.025ms returns 0
T6510 000:830.071 JLINK_GetDebugInfo(0x10C = JLINKARM_DEBUG_INFO_DBG_ADDR_INDEX)
T6510 000:830.079   Value=0xE000EDF0
T6510 000:830.092 - 0.025ms returns 0
T6510 000:830.103 JLINK_ReadMemU32(0xE000ED00, 0x1 Items)
T6510 000:830.117   CPU_ReadMem(4 bytes @ 0xE000ED00)
T6510 000:830.345   Data:  01 C6 0C 41
T6510 000:830.360   Debug reg: CPUID
T6510 000:830.372 - 0.273ms returns 1 (0x1)
T6510 000:830.384 JLINK_HasError()
T6510 000:830.395 JLINK_SetResetType(JLINKARM_CM3_RESET_TYPE_NORMAL)
T6510 000:830.404 - 0.013ms returns JLINKARM_CM3_RESET_TYPE_NORMAL
T6510 000:830.415 JLINK_Reset()
T6510 000:830.427   CPU_ReadMem(4 bytes @ 0x1FFFFC00)
T6510 000:830.648   CPU_WriteMem(4 bytes @ 0x1FFFFC00)
T6510 000:830.892   CPU_WriteMem(4 bytes @ 0xE000EDF0)
T6510 000:831.127   CPU_WriteMem(4 bytes @ 0xE000EDFC)
T6510 000:839.488   Reset: Halt core after reset via DEMCR.VC_CORERESET.
T6510 000:846.478   Reset: Reset device via AIRCR.SYSRESETREQ.
T6510 000:846.503   CPU_WriteMem(4 bytes @ 0xE000ED0C)
T6510 000:912.389   CPU_ReadMem(4 bytes @ 0xE000EDF0)
T6510 000:912.623   CPU_ReadMem(4 bytes @ 0xE000EDF0)
T6510 000:912.838   CPU_WriteMem(4 bytes @ 0xE000EDF0)
T6510 000:913.081   CPU_WriteMem(4 bytes @ 0xE000EDFC)
T6510 000:928.235   CPU_ReadMem(4 bytes @ 0xE000EDF0)
T6510 000:930.267   CPU_WriteMem(4 bytes @ 0xE0002000)
T6510 000:930.500   CPU_ReadMem(4 bytes @ 0xE000EDFC)
T6510 000:930.729   CPU_ReadMem(4 bytes @ 0xE0001000)
T6510 000:930.964   CPU_WriteMem(4 bytes @ 0xE0001000)
T6510 000:931.208 - 100.801ms
T6510 000:931.283 JLINK_Halt()
T6510 000:931.297 - 0.020ms returns 0x00
T6510 000:931.313 JLINK_IsHalted()
T6510 000:931.326 - 0.019ms returns TRUE
T6510 000:931.341 JLINK_ReadMemU32(0xE000EDF0, 0x1 Items)
T6510 000:931.363   CPU_ReadMem(4 bytes @ 0xE000EDF0)
T6510 000:931.627   Data:  03 00 03 00
T6510 000:931.655   Debug reg: DHCSR
T6510 000:931.673 - 0.337ms returns 1 (0x1)
T6510 000:931.695 JLINK_WriteU32_64(0xE000EDF0, 0xA05F0003)
T6510 000:931.708   Debug reg: DHCSR
T6510 000:931.933   CPU_WriteMem(4 bytes @ 0xE000EDF0)
T6510 000:932.177 - 0.491ms returns 0 (0x00000000)
T6510 000:932.196 JLINK_WriteU32_64(0xE000EDFC, 0x01000000)
T6510 000:932.207   Debug reg: DEMCR
T6510 000:932.228   CPU_WriteMem(4 bytes @ 0xE000EDFC)
T6510 000:932.476 - 0.288ms returns 0 (0x00000000)
T6510 000:968.037 JLINK_GetHWStatus(...)
T6510 000:968.197 - 0.166ms returns 0
T6510 000:989.078 JLINK_GetNumBPUnits(Type = 0xFFFFFF00)
T6510 000:989.120 - 0.047ms returns 0x02
T6510 000:989.131 JLINK_GetNumBPUnits(Type = 0xF0)
T6510 000:989.139 - 0.011ms returns 0x2000
T6510 000:989.148 JLINK_GetNumWPUnits()
T6510 000:989.155 - 0.011ms returns 2
T6510 001:011.719 JLINK_GetSpeed()
T6510 001:011.739 - 0.024ms returns 4000
T6510 001:024.384 JLINK_ReadMemU32(0xE000E004, 0x1 Items)
T6510 001:024.419   CPU_ReadMem(4 bytes @ 0xE000E004)
T6510 001:024.663   Data:  00 00 00 00
T6510 001:024.680 - 0.300ms returns 1 (0x1)
T6510 001:024.694 JLINK_Halt()
T6510 001:024.701 - 0.011ms returns 0x00
T6510 001:024.710 JLINK_IsHalted()
T6510 001:024.718 - 0.011ms returns TRUE
T6510 001:039.719 JLINK_WriteMem(0x20000000, 0x91C Bytes, ...)
T6510 001:039.735   Data:  00 BE 0A E0 0D 78 2D 06 68 40 08 24 40 00 00 D3 ...
T6510 001:039.912   CPU_WriteMem(2332 bytes @ 0x20000000)
T6510 001:047.308 - 7.599ms returns 0x91C
T6510 001:047.354 JLINK_HasError()
T6510 001:047.368 JLINK_WriteReg(R0, 0x00000000)
T6510 001:047.381 - 0.017ms returns 0
T6510 001:047.392 JLINK_WriteReg(R1, 0x00B71B00)
T6510 001:047.402 - 0.014ms returns 0
T6510 001:047.412 JLINK_WriteReg(R2, 0x00000001)
T6510 001:047.422 - 0.014ms returns 0
T6510 001:047.433 JLINK_WriteReg(R3, 0x00000000)
T6510 001:047.442 - 0.013ms returns 0
T6510 001:047.452 JLINK_WriteReg(R4, 0x00000000)
T6510 001:047.462 - 0.013ms returns 0
T6510 001:047.472 JLINK_WriteReg(R5, 0x00000000)
T6510 001:047.484 - 0.017ms returns 0
T6510 001:047.496 JLINK_WriteReg(R6, 0x00000000)
T6510 001:047.505 - 0.013ms returns 0
T6510 001:047.515 JLINK_WriteReg(R7, 0x00000000)
T6510 001:047.524 - 0.013ms returns 0
T6510 001:047.535 JLINK_WriteReg(R8, 0x00000000)
T6510 001:047.548 - 0.017ms returns 0
T6510 001:047.558 JLINK_WriteReg(R9, 0x20000910)
T6510 001:047.567 - 0.013ms returns 0
T6510 001:047.578 JLINK_WriteReg(R10, 0x00000000)
T6510 001:047.587 - 0.013ms returns 0
T6510 001:047.598 JLINK_WriteReg(R11, 0x00000000)
T6510 001:047.607 - 0.013ms returns 0
T6510 001:047.617 JLINK_WriteReg(R12, 0x00000000)
T6510 001:047.627 - 0.013ms returns 0
T6510 001:047.637 JLINK_WriteReg(R13 (SP), 0x20001000)
T6510 001:047.648 - 0.015ms returns 0
T6510 001:047.658 JLINK_WriteReg(R14, 0x20000001)
T6510 001:047.668 - 0.013ms returns 0
T6510 001:047.678 JLINK_WriteReg(R15 (PC), 0x20000020)
T6510 001:047.690 - 0.015ms returns 0
T6510 001:047.700 JLINK_WriteReg(XPSR, 0x01000000)
T6510 001:047.709 - 0.013ms returns 0
T6510 001:047.720 JLINK_WriteReg(MSP, 0x20001000)
T6510 001:047.729 - 0.013ms returns 0
T6510 001:047.740 JLINK_WriteReg(PSP, 0x20001000)
T6510 001:047.749 - 0.013ms returns 0
T6510 001:047.759 JLINK_WriteReg(CFBP, 0x00000000)
T6510 001:047.769 - 0.014ms returns 0
T6510 001:047.780 JLINK_SetBPEx(Addr = 0x20000000, Type = 0xFFFFFFF2)
T6510 001:047.795   CPU_ReadMem(2 bytes @ 0x20000000)
T6510 001:048.040 - 0.267ms returns 0x00000001
T6510 001:048.054 JLINK_Go()
T6510 001:048.064   CPU_WriteMem(2 bytes @ 0x20000000)
T6510 001:048.290   CPU_ReadMem(4 bytes @ 0xE0001000)
T6510 001:048.502   CPU_WriteMem(4 bytes @ 0xE0001000)
T6510 001:048.727   CPU_WriteMem(4 bytes @ 0xE0002008)
T6510 001:048.739   CPU_WriteMem(4 bytes @ 0xE000200C)
T6510 001:049.126   CPU_WriteMem(4 bytes @ 0xE0001004)
T6510 001:051.024 - 2.983ms
T6510 001:051.049 JLINK_IsHalted()
T6510 001:052.756   CPU_ReadMem(2 bytes @ 0x20000000)
T6510 001:052.978 - 1.937ms returns TRUE
T6510 001:052.996 JLINK_ReadReg(R15 (PC))
T6510 001:053.006 - 0.014ms returns 0x20000000
T6510 001:053.017 JLINK_ClrBPEx(BPHandle = 0x00000001)
T6510 001:053.025 - 0.012ms returns 0x00
T6510 001:053.035 JLINK_ReadReg(R0)
T6510 001:053.043 - 0.011ms returns 0x00000000
T6510 001:054.018 JLINK_HasError()
T6510 001:054.036 JLINK_WriteReg(R0, 0x0000A000)
T6510 001:054.046 - 0.013ms returns 0
T6510 001:054.055 JLINK_WriteReg(R1, 0x00000800)
T6510 001:054.063 - 0.011ms returns 0
T6510 001:054.071 JLINK_WriteReg(R2, 0x000000FF)
T6510 001:054.079 - 0.011ms returns 0
T6510 001:054.087 JLINK_WriteReg(R3, 0x00000000)
T6510 001:054.094 - 0.010ms returns 0
T6510 001:054.102 JLINK_WriteReg(R4, 0x00000000)
T6510 001:054.110 - 0.011ms returns 0
T6510 001:054.118 JLINK_WriteReg(R5, 0x00000000)
T6510 001:054.125 - 0.011ms returns 0
T6510 001:054.134 JLINK_WriteReg(R6, 0x00000000)
T6510 001:054.141 - 0.011ms returns 0
T6510 001:054.149 JLINK_WriteReg(R7, 0x00000000)
T6510 001:054.156 - 0.011ms returns 0
T6510 001:054.165 JLINK_WriteReg(R8, 0x00000000)
T6510 001:054.172 - 0.010ms returns 0
T6510 001:054.180 JLINK_WriteReg(R9, 0x20000910)
T6510 001:054.187 - 0.010ms returns 0
T6510 001:054.196 JLINK_WriteReg(R10, 0x00000000)
T6510 001:054.203 - 0.010ms returns 0
T6510 001:054.211 JLINK_WriteReg(R11, 0x00000000)
T6510 001:054.219 - 0.011ms returns 0
T6510 001:054.227 JLINK_WriteReg(R12, 0x00000000)
T6510 001:054.234 - 0.010ms returns 0
T6510 001:054.242 JLINK_WriteReg(R13 (SP), 0x20001000)
T6510 001:054.250 - 0.011ms returns 0
T6510 001:054.258 JLINK_WriteReg(R14, 0x20000001)
T6510 001:054.266 - 0.010ms returns 0
T6510 001:054.274 JLINK_WriteReg(R15 (PC), 0x20000096)
T6510 001:054.281 - 0.011ms returns 0
T6510 001:054.289 JLINK_WriteReg(XPSR, 0x01000000)
T6510 001:054.297 - 0.011ms returns 0
T6510 001:054.305 JLINK_WriteReg(MSP, 0x20001000)
T6510 001:054.312 - 0.011ms returns 0
T6510 001:054.321 JLINK_WriteReg(PSP, 0x20001000)
T6510 001:054.328 - 0.011ms returns 0
T6510 001:054.336 JLINK_WriteReg(CFBP, 0x00000000)
T6510 001:054.344 - 0.054ms returns 0
T6510 001:054.398 JLINK_SetBPEx(Addr = 0x20000000, Type = 0xFFFFFFF2)
T6510 001:054.406 - 0.012ms returns 0x00000002
T6510 001:054.414 JLINK_Go()
T6510 001:054.426   CPU_ReadMem(4 bytes @ 0xE0001000)
T6510 001:056.248 - 1.843ms
T6510 001:056.266 JLINK_IsHalted()
T6510 001:057.965   CPU_ReadMem(2 bytes @ 0x20000000)
T6510 001:058.218 - 1.962ms returns TRUE
T6510 001:058.240 JLINK_ReadReg(R15 (PC))
T6510 001:058.256 - 0.022ms returns 0x20000000
T6510 001:058.271 JLINK_ClrBPEx(BPHandle = 0x00000002)
T6510 001:058.285 - 0.020ms returns 0x00
T6510 001:058.300 JLINK_ReadReg(R0)
T6510 001:058.313 - 0.019ms returns 0x00000001
T6510 001:058.328 JLINK_HasError()
T6510 001:058.343 JLINK_WriteReg(R0, 0x0000A000)
T6510 001:058.357 - 0.019ms returns 0
T6510 001:058.372 JLINK_WriteReg(R1, 0x00000800)
T6510 001:058.385 - 0.019ms returns 0
T6510 001:058.400 JLINK_WriteReg(R2, 0x000000FF)
T6510 001:058.413 - 0.019ms returns 0
T6510 001:058.427 JLINK_WriteReg(R3, 0x00000000)
T6510 001:058.440 - 0.019ms returns 0
T6510 001:058.455 JLINK_WriteReg(R4, 0x00000000)
T6510 001:058.468 - 0.019ms returns 0
T6510 001:058.483 JLINK_WriteReg(R5, 0x00000000)
T6510 001:058.495 - 0.019ms returns 0
T6510 001:058.510 JLINK_WriteReg(R6, 0x00000000)
T6510 001:058.523 - 0.019ms returns 0
T6510 001:058.538 JLINK_WriteReg(R7, 0x00000000)
T6510 001:058.550 - 0.019ms returns 0
T6510 001:058.565 JLINK_WriteReg(R8, 0x00000000)
T6510 001:058.578 - 0.019ms returns 0
T6510 001:058.593 JLINK_WriteReg(R9, 0x20000910)
T6510 001:058.605 - 0.019ms returns 0
T6510 001:058.620 JLINK_WriteReg(R10, 0x00000000)
T6510 001:058.633 - 0.019ms returns 0
T6510 001:058.648 JLINK_WriteReg(R11, 0x00000000)
T6510 001:058.661 - 0.019ms returns 0
T6510 001:058.675 JLINK_WriteReg(R12, 0x00000000)
T6510 001:058.688 - 0.019ms returns 0
T6510 001:058.703 JLINK_WriteReg(R13 (SP), 0x20001000)
T6510 001:058.716 - 0.019ms returns 0
T6510 001:058.731 JLINK_WriteReg(R14, 0x20000001)
T6510 001:058.744 - 0.019ms returns 0
T6510 001:058.758 JLINK_WriteReg(R15 (PC), 0x200000DC)
T6510 001:058.772 - 0.019ms returns 0
T6510 001:058.786 JLINK_WriteReg(XPSR, 0x01000000)
T6510 001:058.799 - 0.019ms returns 0
T6510 001:058.814 JLINK_WriteReg(MSP, 0x20001000)
T6510 001:058.827 - 0.019ms returns 0
T6510 001:058.842 JLINK_WriteReg(PSP, 0x20001000)
T6510 001:058.855 - 0.019ms returns 0
T6510 001:058.869 JLINK_WriteReg(CFBP, 0x00000000)
T6510 001:058.882 - 0.019ms returns 0
T6510 001:058.897 JLINK_SetBPEx(Addr = 0x20000000, Type = 0xFFFFFFF2)
T6510 001:058.911 - 0.020ms returns 0x00000003
T6510 001:058.925 JLINK_Go()
T6510 001:058.944   CPU_ReadMem(4 bytes @ 0xE0001000)
T6510 001:060.774 - 1.855ms
T6510 001:060.788 JLINK_IsHalted()
T6510 001:061.002 - 0.222ms returns FALSE
T6510 001:061.020 JLINK_HasError()
T6510 001:130.216 JLINK_IsHalted()
T6510 001:131.996   CPU_ReadMem(2 bytes @ 0x20000000)
T6510 001:132.231 - 2.027ms returns TRUE
T6510 001:132.254 JLINK_ReadReg(R15 (PC))
T6510 001:132.269 - 0.020ms returns 0x20000000
T6510 001:132.282 JLINK_ClrBPEx(BPHandle = 0x00000003)
T6510 001:132.294 - 0.017ms returns 0x00
T6510 001:132.306 JLINK_ReadReg(R0)
T6510 001:132.317 - 0.016ms returns 0x00000000
T6510 001:133.742 JLINK_HasError()
T6510 001:133.765 JLINK_WriteReg(R0, 0x0000A800)
T6510 001:133.779 - 0.020ms returns 0
T6510 001:133.792 JLINK_WriteReg(R1, 0x00000800)
T6510 001:133.815 - 0.033ms returns 0
T6510 001:133.835 JLINK_WriteReg(R2, 0x000000FF)
T6510 001:133.847 - 0.016ms returns 0
T6510 001:133.860 JLINK_WriteReg(R3, 0x00000000)
T6510 001:133.870 - 0.014ms returns 0
T6510 001:133.881 JLINK_WriteReg(R4, 0x00000000)
T6510 001:133.890 - 0.013ms returns 0
T6510 001:133.900 JLINK_WriteReg(R5, 0x00000000)
T6510 001:133.909 - 0.013ms returns 0
T6510 001:133.919 JLINK_WriteReg(R6, 0x00000000)
T6510 001:133.928 - 0.013ms returns 0
T6510 001:133.938 JLINK_WriteReg(R7, 0x00000000)
T6510 001:133.947 - 0.013ms returns 0
T6510 001:133.957 JLINK_WriteReg(R8, 0x00000000)
T6510 001:133.966 - 0.013ms returns 0
T6510 001:133.980 JLINK_WriteReg(R9, 0x20000910)
T6510 001:133.991 - 0.015ms returns 0
T6510 001:134.001 JLINK_WriteReg(R10, 0x00000000)
T6510 001:134.010 - 0.013ms returns 0
T6510 001:134.020 JLINK_WriteReg(R11, 0x00000000)
T6510 001:134.029 - 0.013ms returns 0
T6510 001:134.039 JLINK_WriteReg(R12, 0x00000000)
T6510 001:134.048 - 0.013ms returns 0
T6510 001:134.058 JLINK_WriteReg(R13 (SP), 0x20001000)
T6510 001:134.068 - 0.014ms returns 0
T6510 001:134.078 JLINK_WriteReg(R14, 0x20000001)
T6510 001:134.087 - 0.013ms returns 0
T6510 001:134.097 JLINK_WriteReg(R15 (PC), 0x20000096)
T6510 001:134.106 - 0.013ms returns 0
T6510 001:134.116 JLINK_WriteReg(XPSR, 0x01000000)
T6510 001:134.125 - 0.013ms returns 0
T6510 001:134.136 JLINK_WriteReg(MSP, 0x20001000)
T6510 001:134.150 - 0.018ms returns 0
T6510 001:134.160 JLINK_WriteReg(PSP, 0x20001000)
T6510 001:134.169 - 0.013ms returns 0
T6510 001:134.179 JLINK_WriteReg(CFBP, 0x00000000)
T6510 001:134.188 - 0.013ms returns 0
T6510 001:134.199 JLINK_SetBPEx(Addr = 0x20000000, Type = 0xFFFFFFF2)
T6510 001:134.210 - 0.015ms returns 0x00000004
T6510 001:134.220 JLINK_Go()
T6510 001:134.237   CPU_ReadMem(4 bytes @ 0xE0001000)
T6510 001:136.107 - 1.896ms
T6510 001:136.125 JLINK_IsHalted()
T6510 001:137.809   CPU_ReadMem(2 bytes @ 0x20000000)
T6510 001:138.027 - 1.909ms returns TRUE
T6510 001:138.042 JLINK_ReadReg(R15 (PC))
T6510 001:138.052 - 0.014ms returns 0x20000000
T6510 001:138.062 JLINK_ClrBPEx(BPHandle = 0x00000004)
T6510 001:138.071 - 0.013ms returns 0x00
T6510 001:138.081 JLINK_ReadReg(R0)
T6510 001:138.090 - 0.012ms returns 0x00000001
T6510 001:138.100 JLINK_HasError()
T6510 001:138.110 JLINK_WriteReg(R0, 0x0000A800)
T6510 001:138.119 - 0.014ms returns 0
T6510 001:138.133 JLINK_WriteReg(R1, 0x00000800)
T6510 001:138.146 - 0.019ms returns 0
T6510 001:138.161 JLINK_WriteReg(R2, 0x000000FF)
T6510 001:138.174 - 0.019ms returns 0
T6510 001:138.188 JLINK_WriteReg(R3, 0x00000000)
T6510 001:138.201 - 0.019ms returns 0
T6510 001:138.216 JLINK_WriteReg(R4, 0x00000000)
T6510 001:138.229 - 0.019ms returns 0
T6510 001:138.244 JLINK_WriteReg(R5, 0x00000000)
T6510 001:138.257 - 0.019ms returns 0
T6510 001:138.271 JLINK_WriteReg(R6, 0x00000000)
T6510 001:138.284 - 0.019ms returns 0
T6510 001:138.299 JLINK_WriteReg(R7, 0x00000000)
T6510 001:138.312 - 0.019ms returns 0
T6510 001:138.326 JLINK_WriteReg(R8, 0x00000000)
T6510 001:138.339 - 0.019ms returns 0
T6510 001:138.354 JLINK_WriteReg(R9, 0x20000910)
T6510 001:138.367 - 0.019ms returns 0
T6510 001:138.381 JLINK_WriteReg(R10, 0x00000000)
T6510 001:138.394 - 0.019ms returns 0
T6510 001:138.409 JLINK_WriteReg(R11, 0x00000000)
T6510 001:138.422 - 0.019ms returns 0
T6510 001:138.436 JLINK_WriteReg(R12, 0x00000000)
T6510 001:138.449 - 0.019ms returns 0
T6510 001:138.464 JLINK_WriteReg(R13 (SP), 0x20001000)
T6510 001:138.478 - 0.020ms returns 0
T6510 001:138.492 JLINK_WriteReg(R14, 0x20000001)
T6510 001:138.505 - 0.019ms returns 0
T6510 001:138.520 JLINK_WriteReg(R15 (PC), 0x200000DC)
T6510 001:138.533 - 0.019ms returns 0
T6510 001:138.548 JLINK_WriteReg(XPSR, 0x01000000)
T6510 001:138.561 - 0.019ms returns 0
T6510 001:138.576 JLINK_WriteReg(MSP, 0x20001000)
T6510 001:138.589 - 0.019ms returns 0
T6510 001:138.603 JLINK_WriteReg(PSP, 0x20001000)
T6510 001:138.616 - 0.019ms returns 0
T6510 001:138.631 JLINK_WriteReg(CFBP, 0x00000000)
T6510 001:138.644 - 0.019ms returns 0
T6510 001:138.659 JLINK_SetBPEx(Addr = 0x20000000, Type = 0xFFFFFFF2)
T6510 001:138.672 - 0.020ms returns 0x00000005
T6510 001:138.687 JLINK_Go()
T6510 001:138.706   CPU_ReadMem(4 bytes @ 0xE0001000)
T6510 001:140.588 - 1.908ms
T6510 001:140.603 JLINK_IsHalted()
T6510 001:140.813 - 0.217ms returns FALSE
T6510 001:140.827 JLINK_HasError()
T6510 001:146.129 JLINK_IsHalted()
T6510 001:146.395 - 0.282ms returns FALSE
T6510 001:146.423 JLINK_HasError()
T6510 001:161.213 JLINK_IsHalted()
T6510 001:163.085   CPU_ReadMem(2 bytes @ 0x20000000)
T6510 001:163.306 - 2.099ms returns TRUE
T6510 001:163.320 JLINK_ReadReg(R15 (PC))
T6510 001:163.337 - 0.020ms returns 0x20000000
T6510 001:163.347 JLINK_ClrBPEx(BPHandle = 0x00000005)
T6510 001:163.357 - 0.014ms returns 0x00
T6510 001:163.368 JLINK_ReadReg(R0)
T6510 001:163.377 - 0.013ms returns 0x00000000
T6510 001:164.160 JLINK_HasError()
T6510 001:164.177 JLINK_WriteReg(R0, 0x0000B000)
T6510 001:164.189 - 0.016ms returns 0
T6510 001:164.200 JLINK_WriteReg(R1, 0x00000800)
T6510 001:164.209 - 0.014ms returns 0
T6510 001:164.219 JLINK_WriteReg(R2, 0x000000FF)
T6510 001:164.229 - 0.013ms returns 0
T6510 001:164.239 JLINK_WriteReg(R3, 0x00000000)
T6510 001:164.248 - 0.013ms returns 0
T6510 001:164.259 JLINK_WriteReg(R4, 0x00000000)
T6510 001:164.268 - 0.013ms returns 0
T6510 001:164.278 JLINK_WriteReg(R5, 0x00000000)
T6510 001:164.290 - 0.017ms returns 0
T6510 001:164.301 JLINK_WriteReg(R6, 0x00000000)
T6510 001:164.310 - 0.013ms returns 0
T6510 001:164.320 JLINK_WriteReg(R7, 0x00000000)
T6510 001:164.329 - 0.013ms returns 0
T6510 001:164.339 JLINK_WriteReg(R8, 0x00000000)
T6510 001:164.348 - 0.013ms returns 0
T6510 001:164.359 JLINK_WriteReg(R9, 0x20000910)
T6510 001:164.368 - 0.013ms returns 0
T6510 001:164.378 JLINK_WriteReg(R10, 0x00000000)
T6510 001:164.387 - 0.013ms returns 0
T6510 001:164.397 JLINK_WriteReg(R11, 0x00000000)
T6510 001:164.406 - 0.013ms returns 0
T6510 001:164.416 JLINK_WriteReg(R12, 0x00000000)
T6510 001:164.425 - 0.013ms returns 0
T6510 001:164.436 JLINK_WriteReg(R13 (SP), 0x20001000)
T6510 001:164.445 - 0.014ms returns 0
T6510 001:164.455 JLINK_WriteReg(R14, 0x20000001)
T6510 001:164.465 - 0.013ms returns 0
T6510 001:164.475 JLINK_WriteReg(R15 (PC), 0x20000096)
T6510 001:164.484 - 0.013ms returns 0
T6510 001:164.501 JLINK_WriteReg(XPSR, 0x01000000)
T6510 001:164.510 - 0.014ms returns 0
T6510 001:164.521 JLINK_WriteReg(MSP, 0x20001000)
T6510 001:164.530 - 0.013ms returns 0
T6510 001:164.540 JLINK_WriteReg(PSP, 0x20001000)
T6510 001:164.549 - 0.013ms returns 0
T6510 001:164.559 JLINK_WriteReg(CFBP, 0x00000000)
T6510 001:164.568 - 0.013ms returns 0
T6510 001:164.579 JLINK_SetBPEx(Addr = 0x20000000, Type = 0xFFFFFFF2)
T6510 001:164.589 - 0.014ms returns 0x00000006
T6510 001:164.599 JLINK_Go()
T6510 001:164.614   CPU_ReadMem(4 bytes @ 0xE0001000)
T6510 001:166.483 - 1.897ms
T6510 001:166.508 JLINK_IsHalted()
T6510 001:168.249   CPU_ReadMem(2 bytes @ 0x20000000)
T6510 001:168.483 - 1.984ms returns TRUE
T6510 001:168.501 JLINK_ReadReg(R15 (PC))
T6510 001:168.512 - 0.016ms returns 0x20000000
T6510 001:168.523 JLINK_ClrBPEx(BPHandle = 0x00000006)
T6510 001:168.532 - 0.013ms returns 0x00
T6510 001:168.543 JLINK_ReadReg(R0)
T6510 001:168.552 - 0.013ms returns 0x00000001
T6510 001:168.562 JLINK_HasError()
T6510 001:168.573 JLINK_WriteReg(R0, 0x0000B000)
T6510 001:168.582 - 0.014ms returns 0
T6510 001:168.593 JLINK_WriteReg(R1, 0x00000800)
T6510 001:168.602 - 0.013ms returns 0
T6510 001:168.612 JLINK_WriteReg(R2, 0x000000FF)
T6510 001:168.621 - 0.013ms returns 0
T6510 001:168.632 JLINK_WriteReg(R3, 0x00000000)
T6510 001:168.641 - 0.013ms returns 0
T6510 001:168.651 JLINK_WriteReg(R4, 0x00000000)
T6510 001:168.660 - 0.013ms returns 0
T6510 001:168.670 JLINK_WriteReg(R5, 0x00000000)
T6510 001:168.679 - 0.013ms returns 0
T6510 001:168.689 JLINK_WriteReg(R6, 0x00000000)
T6510 001:168.698 - 0.013ms returns 0
T6510 001:168.709 JLINK_WriteReg(R7, 0x00000000)
T6510 001:168.718 - 0.013ms returns 0
T6510 001:168.728 JLINK_WriteReg(R8, 0x00000000)
T6510 001:168.737 - 0.013ms returns 0
T6510 001:168.748 JLINK_WriteReg(R9, 0x20000910)
T6510 001:168.757 - 0.013ms returns 0
T6510 001:168.767 JLINK_WriteReg(R10, 0x00000000)
T6510 001:168.776 - 0.013ms returns 0
T6510 001:168.786 JLINK_WriteReg(R11, 0x00000000)
T6510 001:168.797 - 0.017ms returns 0
T6510 001:168.813 JLINK_WriteReg(R12, 0x00000000)
T6510 001:168.823 - 0.014ms returns 0
T6510 001:168.833 JLINK_WriteReg(R13 (SP), 0x20001000)
T6510 001:168.842 - 0.014ms returns 0
T6510 001:168.853 JLINK_WriteReg(R14, 0x20000001)
T6510 001:168.862 - 0.015ms returns 0
T6510 001:168.878 JLINK_WriteReg(R15 (PC), 0x200000DC)
T6510 001:168.887 - 0.013ms returns 0
T6510 001:168.898 JLINK_WriteReg(XPSR, 0x01000000)
T6510 001:168.907 - 0.013ms returns 0
T6510 001:168.917 JLINK_WriteReg(MSP, 0x20001000)
T6510 001:168.926 - 0.013ms returns 0
T6510 001:168.937 JLINK_WriteReg(PSP, 0x20001000)
T6510 001:168.946 - 0.013ms returns 0
T6510 001:168.956 JLINK_WriteReg(CFBP, 0x00000000)
T6510 001:168.965 - 0.013ms returns 0
T6510 001:168.976 JLINK_SetBPEx(Addr = 0x20000000, Type = 0xFFFFFFF2)
T6510 001:168.985 - 0.014ms returns 0x00000007
T6510 001:168.995 JLINK_Go()
T6510 001:169.009   CPU_ReadMem(4 bytes @ 0xE0001000)
T6510 001:170.891 - 1.908ms
T6510 001:170.917 JLINK_IsHalted()
T6510 001:171.146 - 0.238ms returns FALSE
T6510 001:171.168 JLINK_HasError()
T6510 001:176.716 JLINK_IsHalted()
T6510 001:177.019 - 0.321ms returns FALSE
T6510 001:177.053 JLINK_HasError()
T6510 001:192.022 JLINK_IsHalted()
T6510 001:193.890   CPU_ReadMem(2 bytes @ 0x20000000)
T6510 001:194.128 - 2.113ms returns TRUE
T6510 001:194.144 JLINK_ReadReg(R15 (PC))
T6510 001:194.156 - 0.016ms returns 0x20000000
T6510 001:194.167 JLINK_ClrBPEx(BPHandle = 0x00000007)
T6510 001:194.177 - 0.014ms returns 0x00
T6510 001:194.188 JLINK_ReadReg(R0)
T6510 001:194.197 - 0.013ms returns 0x00000000
T6510 001:194.987 JLINK_HasError()
T6510 001:195.004 JLINK_WriteReg(R0, 0x0000B800)
T6510 001:195.016 - 0.016ms returns 0
T6510 001:195.027 JLINK_WriteReg(R1, 0x00000800)
T6510 001:195.037 - 0.014ms returns 0
T6510 001:195.047 JLINK_WriteReg(R2, 0x000000FF)
T6510 001:195.056 - 0.013ms returns 0
T6510 001:195.067 JLINK_WriteReg(R3, 0x00000000)
T6510 001:195.076 - 0.013ms returns 0
T6510 001:195.086 JLINK_WriteReg(R4, 0x00000000)
T6510 001:195.095 - 0.013ms returns 0
T6510 001:195.106 JLINK_WriteReg(R5, 0x00000000)
T6510 001:195.115 - 0.013ms returns 0
T6510 001:195.125 JLINK_WriteReg(R6, 0x00000000)
T6510 001:195.134 - 0.013ms returns 0
T6510 001:195.144 JLINK_WriteReg(R7, 0x00000000)
T6510 001:195.154 - 0.013ms returns 0
T6510 001:195.164 JLINK_WriteReg(R8, 0x00000000)
T6510 001:195.173 - 0.013ms returns 0
T6510 001:195.183 JLINK_WriteReg(R9, 0x20000910)
T6510 001:195.192 - 0.013ms returns 0
T6510 001:195.202 JLINK_WriteReg(R10, 0x00000000)
T6510 001:195.212 - 0.013ms returns 0
T6510 001:195.222 JLINK_WriteReg(R11, 0x00000000)
T6510 001:195.231 - 0.013ms returns 0
T6510 001:195.241 JLINK_WriteReg(R12, 0x00000000)
T6510 001:195.250 - 0.013ms returns 0
T6510 001:195.261 JLINK_WriteReg(R13 (SP), 0x20001000)
T6510 001:195.270 - 0.014ms returns 0
T6510 001:195.281 JLINK_WriteReg(R14, 0x20000001)
T6510 001:195.290 - 0.013ms returns 0
T6510 001:195.300 JLINK_WriteReg(R15 (PC), 0x20000096)
T6510 001:195.316 - 0.020ms returns 0
T6510 001:195.326 JLINK_WriteReg(XPSR, 0x01000000)
T6510 001:195.336 - 0.013ms returns 0
T6510 001:195.346 JLINK_WriteReg(MSP, 0x20001000)
T6510 001:195.355 - 0.013ms returns 0
T6510 001:195.365 JLINK_WriteReg(PSP, 0x20001000)
T6510 001:195.374 - 0.013ms returns 0
T6510 001:195.385 JLINK_WriteReg(CFBP, 0x00000000)
T6510 001:195.394 - 0.013ms returns 0
T6510 001:195.405 JLINK_SetBPEx(Addr = 0x20000000, Type = 0xFFFFFFF2)
T6510 001:195.415 - 0.015ms returns 0x00000008
T6510 001:195.426 JLINK_Go()
T6510 001:195.442   CPU_ReadMem(4 bytes @ 0xE0001000)
T6510 001:197.288 - 1.874ms
T6510 001:197.311 JLINK_IsHalted()
T6510 001:199.020   CPU_ReadMem(2 bytes @ 0x20000000)
T6510 001:199.247 - 1.944ms returns TRUE
T6510 001:199.267 JLINK_ReadReg(R15 (PC))
T6510 001:199.282 - 0.022ms returns 0x20000000
T6510 001:199.298 JLINK_ClrBPEx(BPHandle = 0x00000008)
T6510 001:199.311 - 0.019ms returns 0x00
T6510 001:199.326 JLINK_ReadReg(R0)
T6510 001:199.339 - 0.019ms returns 0x00000001
T6510 001:199.354 JLINK_HasError()
T6510 001:199.369 JLINK_WriteReg(R0, 0x0000B800)
T6510 001:199.383 - 0.020ms returns 0
T6510 001:199.398 JLINK_WriteReg(R1, 0x00000800)
T6510 001:199.411 - 0.019ms returns 0
T6510 001:199.426 JLINK_WriteReg(R2, 0x000000FF)
T6510 001:199.439 - 0.083ms returns 0
T6510 001:199.521 JLINK_WriteReg(R3, 0x00000000)
T6510 001:199.535 - 0.020ms returns 0
T6510 001:199.550 JLINK_WriteReg(R4, 0x00000000)
T6510 001:199.564 - 0.019ms returns 0
T6510 001:199.578 JLINK_WriteReg(R5, 0x00000000)
T6510 001:199.601 - 0.029ms returns 0
T6510 001:199.616 JLINK_WriteReg(R6, 0x00000000)
T6510 001:199.629 - 0.019ms returns 0
T6510 001:199.643 JLINK_WriteReg(R7, 0x00000000)
T6510 001:199.656 - 0.019ms returns 0
T6510 001:199.671 JLINK_WriteReg(R8, 0x00000000)
T6510 001:199.684 - 0.019ms returns 0
T6510 001:199.699 JLINK_WriteReg(R9, 0x20000910)
T6510 001:199.712 - 0.019ms returns 0
T6510 001:199.727 JLINK_WriteReg(R10, 0x00000000)
T6510 001:199.740 - 0.019ms returns 0
T6510 001:199.754 JLINK_WriteReg(R11, 0x00000000)
T6510 001:199.767 - 0.019ms returns 0
T6510 001:199.782 JLINK_WriteReg(R12, 0x00000000)
T6510 001:199.795 - 0.019ms returns 0
T6510 001:199.809 JLINK_WriteReg(R13 (SP), 0x20001000)
T6510 001:199.823 - 0.019ms returns 0
T6510 001:199.837 JLINK_WriteReg(R14, 0x20000001)
T6510 001:199.851 - 0.019ms returns 0
T6510 001:199.865 JLINK_WriteReg(R15 (PC), 0x200000DC)
T6510 001:199.878 - 0.019ms returns 0
T6510 001:199.893 JLINK_WriteReg(XPSR, 0x01000000)
T6510 001:199.906 - 0.019ms returns 0
T6510 001:199.921 JLINK_WriteReg(MSP, 0x20001000)
T6510 001:199.934 - 0.019ms returns 0
T6510 001:199.949 JLINK_WriteReg(PSP, 0x20001000)
T6510 001:199.962 - 0.019ms returns 0
T6510 001:199.976 JLINK_WriteReg(CFBP, 0x00000000)
T6510 001:199.990 - 0.019ms returns 0
T6510 001:200.004 JLINK_SetBPEx(Addr = 0x20000000, Type = 0xFFFFFFF2)
T6510 001:200.019 - 0.020ms returns 0x00000009
T6510 001:200.033 JLINK_Go()
T6510 001:200.052   CPU_ReadMem(4 bytes @ 0xE0001000)
T6510 001:201.968 - 1.944ms
T6510 001:201.986 JLINK_IsHalted()
T6510 001:202.201 - 0.223ms returns FALSE
T6510 001:202.218 JLINK_HasError()
T6510 001:207.926 JLINK_IsHalted()
T6510 001:208.228 - 0.318ms returns FALSE
T6510 001:208.258 JLINK_HasError()
T6510 001:224.019 JLINK_IsHalted()
T6510 001:225.887   CPU_ReadMem(2 bytes @ 0x20000000)
T6510 001:226.118 - 2.110ms returns TRUE
T6510 001:226.138 JLINK_ReadReg(R15 (PC))
T6510 001:226.151 - 0.017ms returns 0x20000000
T6510 001:226.161 JLINK_ClrBPEx(BPHandle = 0x00000009)
T6510 001:226.171 - 0.014ms returns 0x00
T6510 001:226.182 JLINK_ReadReg(R0)
T6510 001:226.191 - 0.013ms returns 0x00000000
T6510 001:227.358 JLINK_HasError()
T6510 001:227.375 JLINK_WriteReg(R0, 0x0000C000)
T6510 001:227.387 - 0.016ms returns 0
T6510 001:227.398 JLINK_WriteReg(R1, 0x00000800)
T6510 001:227.420 - 0.028ms returns 0
T6510 001:227.433 JLINK_WriteReg(R2, 0x000000FF)
T6510 001:227.442 - 0.014ms returns 0
T6510 001:227.456 JLINK_WriteReg(R3, 0x00000000)
T6510 001:227.465 - 0.013ms returns 0
T6510 001:227.475 JLINK_WriteReg(R4, 0x00000000)
T6510 001:227.484 - 0.013ms returns 0
T6510 001:227.495 JLINK_WriteReg(R5, 0x00000000)
T6510 001:227.504 - 0.013ms returns 0
T6510 001:227.514 JLINK_WriteReg(R6, 0x00000000)
T6510 001:227.523 - 0.013ms returns 0
T6510 001:227.534 JLINK_WriteReg(R7, 0x00000000)
T6510 001:227.543 - 0.013ms returns 0
T6510 001:227.553 JLINK_WriteReg(R8, 0x00000000)
T6510 001:227.562 - 0.013ms returns 0
T6510 001:227.573 JLINK_WriteReg(R9, 0x20000910)
T6510 001:227.582 - 0.013ms returns 0
T6510 001:227.592 JLINK_WriteReg(R10, 0x00000000)
T6510 001:227.601 - 0.013ms returns 0
T6510 001:227.611 JLINK_WriteReg(R11, 0x00000000)
T6510 001:227.621 - 0.013ms returns 0
T6510 001:227.631 JLINK_WriteReg(R12, 0x00000000)
T6510 001:227.640 - 0.013ms returns 0
T6510 001:227.650 JLINK_WriteReg(R13 (SP), 0x20001000)
T6510 001:227.660 - 0.014ms returns 0
T6510 001:227.670 JLINK_WriteReg(R14, 0x20000001)
T6510 001:227.679 - 0.013ms returns 0
T6510 001:227.689 JLINK_WriteReg(R15 (PC), 0x20000096)
T6510 001:227.699 - 0.013ms returns 0
T6510 001:227.709 JLINK_WriteReg(XPSR, 0x01000000)
T6510 001:227.718 - 0.013ms returns 0
T6510 001:227.728 JLINK_WriteReg(MSP, 0x20001000)
T6510 001:227.737 - 0.013ms returns 0
T6510 001:227.750 JLINK_WriteReg(PSP, 0x20001000)
T6510 001:227.761 - 0.015ms returns 0
T6510 001:227.771 JLINK_WriteReg(CFBP, 0x00000000)
T6510 001:227.781 - 0.013ms returns 0
T6510 001:227.791 JLINK_SetBPEx(Addr = 0x20000000, Type = 0xFFFFFFF2)
T6510 001:227.802 - 0.015ms returns 0x0000000A
T6510 001:227.812 JLINK_Go()
T6510 001:227.828   CPU_ReadMem(4 bytes @ 0xE0001000)
T6510 001:229.687 - 1.885ms
T6510 001:229.707 JLINK_IsHalted()
T6510 001:231.507   CPU_ReadMem(2 bytes @ 0x20000000)
T6510 001:231.757 - 2.057ms returns TRUE
T6510 001:231.776 JLINK_ReadReg(R15 (PC))
T6510 001:231.791 - 0.021ms returns 0x20000000
T6510 001:231.806 JLINK_ClrBPEx(BPHandle = 0x0000000A)
T6510 001:231.819 - 0.020ms returns 0x00
T6510 001:231.835 JLINK_ReadReg(R0)
T6510 001:231.848 - 0.019ms returns 0x00000001
T6510 001:231.863 JLINK_HasError()
T6510 001:231.878 JLINK_WriteReg(R0, 0x0000C000)
T6510 001:231.892 - 0.023ms returns 0
T6510 001:231.920 JLINK_WriteReg(R1, 0x00000800)
T6510 001:231.942 - 0.028ms returns 0
T6510 001:231.957 JLINK_WriteReg(R2, 0x000000FF)
T6510 001:231.976 - 0.027ms returns 0
T6510 001:231.997 JLINK_WriteReg(R3, 0x00000000)
T6510 001:232.011 - 0.019ms returns 0
T6510 001:232.025 JLINK_WriteReg(R4, 0x00000000)
T6510 001:232.038 - 0.019ms returns 0
T6510 001:232.053 JLINK_WriteReg(R5, 0x00000000)
T6510 001:232.066 - 0.019ms returns 0
T6510 001:232.081 JLINK_WriteReg(R6, 0x00000000)
T6510 001:232.094 - 0.019ms returns 0
T6510 001:232.109 JLINK_WriteReg(R7, 0x00000000)
T6510 001:232.121 - 0.019ms returns 0
T6510 001:232.136 JLINK_WriteReg(R8, 0x00000000)
T6510 001:232.149 - 0.019ms returns 0
T6510 001:232.164 JLINK_WriteReg(R9, 0x20000910)
T6510 001:232.177 - 0.019ms returns 0
T6510 001:232.191 JLINK_WriteReg(R10, 0x00000000)
T6510 001:232.204 - 0.019ms returns 0
T6510 001:232.219 JLINK_WriteReg(R11, 0x00000000)
T6510 001:232.232 - 0.019ms returns 0
T6510 001:232.246 JLINK_WriteReg(R12, 0x00000000)
T6510 001:232.259 - 0.019ms returns 0
T6510 001:232.274 JLINK_WriteReg(R13 (SP), 0x20001000)
T6510 001:232.288 - 0.019ms returns 0
T6510 001:232.302 JLINK_WriteReg(R14, 0x20000001)
T6510 001:232.315 - 0.019ms returns 0
T6510 001:232.330 JLINK_WriteReg(R15 (PC), 0x200000DC)
T6510 001:232.343 - 0.019ms returns 0
T6510 001:232.358 JLINK_WriteReg(XPSR, 0x01000000)
T6510 001:232.371 - 0.019ms returns 0
T6510 001:232.385 JLINK_WriteReg(MSP, 0x20001000)
T6510 001:232.398 - 0.019ms returns 0
T6510 001:232.413 JLINK_WriteReg(PSP, 0x20001000)
T6510 001:232.426 - 0.019ms returns 0
T6510 001:232.440 JLINK_WriteReg(CFBP, 0x00000000)
T6510 001:232.453 - 0.019ms returns 0
T6510 001:232.468 JLINK_SetBPEx(Addr = 0x20000000, Type = 0xFFFFFFF2)
T6510 001:232.482 - 0.020ms returns 0x0000000B
T6510 001:232.497 JLINK_Go()
T6510 001:232.516   CPU_ReadMem(4 bytes @ 0xE0001000)
T6510 001:234.492 - 2.006ms
T6510 001:234.515 JLINK_IsHalted()
T6510 001:234.761 - 0.254ms returns FALSE
T6510 001:234.779 JLINK_HasError()
T6510 001:239.219 JLINK_IsHalted()
T6510 001:239.484 - 0.279ms returns FALSE
T6510 001:239.510 JLINK_HasError()
T6510 001:255.012 JLINK_IsHalted()
T6510 001:256.787   CPU_ReadMem(2 bytes @ 0x20000000)
T6510 001:257.026 - 2.018ms returns TRUE
T6510 001:257.037 JLINK_ReadReg(R15 (PC))
T6510 001:257.048 - 0.014ms returns 0x20000000
T6510 001:257.057 JLINK_ClrBPEx(BPHandle = 0x0000000B)
T6510 001:257.065 - 0.012ms returns 0x00
T6510 001:257.074 JLINK_ReadReg(R0)
T6510 001:257.082 - 0.011ms returns 0x00000000
T6510 001:257.794 JLINK_HasError()
T6510 001:257.808 JLINK_WriteReg(R0, 0x0000C800)
T6510 001:257.818 - 0.013ms returns 0
T6510 001:257.827 JLINK_WriteReg(R1, 0x00000800)
T6510 001:257.835 - 0.011ms returns 0
T6510 001:257.844 JLINK_WriteReg(R2, 0x000000FF)
T6510 001:257.852 - 0.011ms returns 0
T6510 001:257.861 JLINK_WriteReg(R3, 0x00000000)
T6510 001:257.868 - 0.011ms returns 0
T6510 001:257.877 JLINK_WriteReg(R4, 0x00000000)
T6510 001:257.885 - 0.011ms returns 0
T6510 001:257.893 JLINK_WriteReg(R5, 0x00000000)
T6510 001:257.901 - 0.011ms returns 0
T6510 001:257.913 JLINK_WriteReg(R6, 0x00000000)
T6510 001:257.923 - 0.013ms returns 0
T6510 001:257.932 JLINK_WriteReg(R7, 0x00000000)
T6510 001:257.940 - 0.011ms returns 0
T6510 001:257.948 JLINK_WriteReg(R8, 0x00000000)
T6510 001:257.956 - 0.011ms returns 0
T6510 001:257.965 JLINK_WriteReg(R9, 0x20000910)
T6510 001:257.972 - 0.011ms returns 0
T6510 001:257.981 JLINK_WriteReg(R10, 0x00000000)
T6510 001:257.989 - 0.011ms returns 0
T6510 001:257.997 JLINK_WriteReg(R11, 0x00000000)
T6510 001:258.005 - 0.011ms returns 0
T6510 001:258.014 JLINK_WriteReg(R12, 0x00000000)
T6510 001:258.021 - 0.011ms returns 0
T6510 001:258.030 JLINK_WriteReg(R13 (SP), 0x20001000)
T6510 001:258.038 - 0.012ms returns 0
T6510 001:258.047 JLINK_WriteReg(R14, 0x20000001)
T6510 001:258.054 - 0.011ms returns 0
T6510 001:258.063 JLINK_WriteReg(R15 (PC), 0x20000096)
T6510 001:258.071 - 0.011ms returns 0
T6510 001:258.079 JLINK_WriteReg(XPSR, 0x01000000)
T6510 001:258.087 - 0.011ms returns 0
T6510 001:258.096 JLINK_WriteReg(MSP, 0x20001000)
T6510 001:258.103 - 0.011ms returns 0
T6510 001:258.112 JLINK_WriteReg(PSP, 0x20001000)
T6510 001:258.120 - 0.011ms returns 0
T6510 001:258.128 JLINK_WriteReg(CFBP, 0x00000000)
T6510 001:258.136 - 0.011ms returns 0
T6510 001:258.145 JLINK_SetBPEx(Addr = 0x20000000, Type = 0xFFFFFFF2)
T6510 001:258.154 - 0.013ms returns 0x0000000C
T6510 001:258.163 JLINK_Go()
T6510 001:258.176   CPU_ReadMem(4 bytes @ 0xE0001000)
T6510 001:260.032 - 1.882ms
T6510 001:260.059 JLINK_IsHalted()
T6510 001:261.798   CPU_ReadMem(2 bytes @ 0x20000000)
T6510 001:262.057 - 2.008ms returns TRUE
T6510 001:262.081 JLINK_ReadReg(R15 (PC))
T6510 001:262.099 - 0.026ms returns 0x20000000
T6510 001:262.118 JLINK_ClrBPEx(BPHandle = 0x0000000C)
T6510 001:262.134 - 0.024ms returns 0x00
T6510 001:262.152 JLINK_ReadReg(R0)
T6510 001:262.168 - 0.023ms returns 0x00000001
T6510 001:262.187 JLINK_HasError()
T6510 001:262.205 JLINK_WriteReg(R0, 0x0000C800)
T6510 001:262.221 - 0.024ms returns 0
T6510 001:262.240 JLINK_WriteReg(R1, 0x00000800)
T6510 001:262.255 - 0.023ms returns 0
T6510 001:262.273 JLINK_WriteReg(R2, 0x000000FF)
T6510 001:262.289 - 0.023ms returns 0
T6510 001:262.307 JLINK_WriteReg(R3, 0x00000000)
T6510 001:262.322 - 0.023ms returns 0
T6510 001:262.340 JLINK_WriteReg(R4, 0x00000000)
T6510 001:262.356 - 0.023ms returns 0
T6510 001:262.374 JLINK_WriteReg(R5, 0x00000000)
T6510 001:262.389 - 0.023ms returns 0
T6510 001:262.407 JLINK_WriteReg(R6, 0x00000000)
T6510 001:262.423 - 0.023ms returns 0
T6510 001:262.441 JLINK_WriteReg(R7, 0x00000000)
T6510 001:262.456 - 0.021ms returns 0
T6510 001:262.473 JLINK_WriteReg(R8, 0x00000000)
T6510 001:262.484 - 0.015ms returns 0
T6510 001:262.493 JLINK_WriteReg(R9, 0x20000910)
T6510 001:262.501 - 0.011ms returns 0
T6510 001:262.510 JLINK_WriteReg(R10, 0x00000000)
T6510 001:262.517 - 0.011ms returns 0
T6510 001:262.528 JLINK_WriteReg(R11, 0x00000000)
T6510 001:262.537 - 0.012ms returns 0
T6510 001:262.546 JLINK_WriteReg(R12, 0x00000000)
T6510 001:262.553 - 0.011ms returns 0
T6510 001:262.564 JLINK_WriteReg(R13 (SP), 0x20001000)
T6510 001:262.573 - 0.011ms returns 0
T6510 001:262.581 JLINK_WriteReg(R14, 0x20000001)
T6510 001:262.589 - 0.011ms returns 0
T6510 001:262.598 JLINK_WriteReg(R15 (PC), 0x200000DC)
T6510 001:262.605 - 0.011ms returns 0
T6510 001:262.614 JLINK_WriteReg(XPSR, 0x01000000)
T6510 001:262.622 - 0.011ms returns 0
T6510 001:262.630 JLINK_WriteReg(MSP, 0x20001000)
T6510 001:262.638 - 0.011ms returns 0
T6510 001:262.647 JLINK_WriteReg(PSP, 0x20001000)
T6510 001:262.654 - 0.011ms returns 0
T6510 001:262.663 JLINK_WriteReg(CFBP, 0x00000000)
T6510 001:262.671 - 0.011ms returns 0
T6510 001:262.679 JLINK_SetBPEx(Addr = 0x20000000, Type = 0xFFFFFFF2)
T6510 001:262.687 - 0.011ms returns 0x0000000D
T6510 001:262.696 JLINK_Go()
T6510 001:262.707   CPU_ReadMem(4 bytes @ 0xE0001000)
T6510 001:264.540 - 1.886ms
T6510 001:264.597 JLINK_IsHalted()
T6510 001:264.849 - 0.261ms returns FALSE
T6510 001:264.872 JLINK_HasError()
T6510 001:270.911 JLINK_IsHalted()
T6510 001:271.179 - 0.277ms returns FALSE
T6510 001:271.200 JLINK_HasError()
T6510 001:286.550 JLINK_IsHalted()
T6510 001:288.345   CPU_ReadMem(2 bytes @ 0x20000000)
T6510 001:288.611 - 2.073ms returns TRUE
T6510 001:288.634 JLINK_ReadReg(R15 (PC))
T6510 001:288.652 - 0.024ms returns 0x20000000
T6510 001:288.668 JLINK_ClrBPEx(BPHandle = 0x0000000D)
T6510 001:288.683 - 0.020ms returns 0x00
T6510 001:288.695 JLINK_ReadReg(R0)
T6510 001:288.705 - 0.014ms returns 0x00000000
T6510 001:289.737 JLINK_HasError()
T6510 001:289.755 JLINK_WriteReg(R0, 0x0000D000)
T6510 001:289.768 - 0.017ms returns 0
T6510 001:289.778 JLINK_WriteReg(R1, 0x00000800)
T6510 001:289.788 - 0.014ms returns 0
T6510 001:289.798 JLINK_WriteReg(R2, 0x000000FF)
T6510 001:289.807 - 0.013ms returns 0
T6510 001:289.817 JLINK_WriteReg(R3, 0x00000000)
T6510 001:289.825 - 0.012ms returns 0
T6510 001:289.835 JLINK_WriteReg(R4, 0x00000000)
T6510 001:289.844 - 0.012ms returns 0
T6510 001:289.853 JLINK_WriteReg(R5, 0x00000000)
T6510 001:289.862 - 0.013ms returns 0
T6510 001:289.872 JLINK_WriteReg(R6, 0x00000000)
T6510 001:289.881 - 0.013ms returns 0
T6510 001:289.891 JLINK_WriteReg(R7, 0x00000000)
T6510 001:289.899 - 0.013ms returns 0
T6510 001:289.909 JLINK_WriteReg(R8, 0x00000000)
T6510 001:289.918 - 0.013ms returns 0
T6510 001:289.928 JLINK_WriteReg(R9, 0x20000910)
T6510 001:289.936 - 0.013ms returns 0
T6510 001:289.946 JLINK_WriteReg(R10, 0x00000000)
T6510 001:289.955 - 0.012ms returns 0
T6510 001:289.965 JLINK_WriteReg(R11, 0x00000000)
T6510 001:289.973 - 0.013ms returns 0
T6510 001:289.983 JLINK_WriteReg(R12, 0x00000000)
T6510 001:289.992 - 0.013ms returns 0
T6510 001:290.002 JLINK_WriteReg(R13 (SP), 0x20001000)
T6510 001:290.011 - 0.013ms returns 0
T6510 001:290.021 JLINK_WriteReg(R14, 0x20000001)
T6510 001:290.030 - 0.013ms returns 0
T6510 001:290.039 JLINK_WriteReg(R15 (PC), 0x20000096)
T6510 001:290.048 - 0.013ms returns 0
T6510 001:290.058 JLINK_WriteReg(XPSR, 0x01000000)
T6510 001:290.067 - 0.013ms returns 0
T6510 001:290.077 JLINK_WriteReg(MSP, 0x20001000)
T6510 001:290.085 - 0.013ms returns 0
T6510 001:290.095 JLINK_WriteReg(PSP, 0x20001000)
T6510 001:290.104 - 0.013ms returns 0
T6510 001:290.114 JLINK_WriteReg(CFBP, 0x00000000)
T6510 001:290.122 - 0.013ms returns 0
T6510 001:290.133 JLINK_SetBPEx(Addr = 0x20000000, Type = 0xFFFFFFF2)
T6510 001:290.143 - 0.014ms returns 0x0000000E
T6510 001:290.152 JLINK_Go()
T6510 001:290.168   CPU_ReadMem(4 bytes @ 0xE0001000)
T6510 001:292.021 - 1.878ms
T6510 001:292.039 JLINK_IsHalted()
T6510 001:293.734   CPU_ReadMem(2 bytes @ 0x20000000)
T6510 001:293.981 - 1.949ms returns TRUE
T6510 001:294.000 JLINK_ReadReg(R15 (PC))
T6510 001:294.016 - 0.022ms returns 0x20000000
T6510 001:294.031 JLINK_ClrBPEx(BPHandle = 0x0000000E)
T6510 001:294.044 - 0.020ms returns 0x00
T6510 001:294.059 JLINK_ReadReg(R0)
T6510 001:294.073 - 0.019ms returns 0x00000001
T6510 001:294.088 JLINK_HasError()
T6510 001:294.103 JLINK_WriteReg(R0, 0x0000D000)
T6510 001:294.117 - 0.020ms returns 0
T6510 001:294.131 JLINK_WriteReg(R1, 0x00000800)
T6510 001:294.145 - 0.019ms returns 0
T6510 001:294.159 JLINK_WriteReg(R2, 0x000000FF)
T6510 001:294.172 - 0.019ms returns 0
T6510 001:294.187 JLINK_WriteReg(R3, 0x00000000)
T6510 001:294.200 - 0.019ms returns 0
T6510 001:294.214 JLINK_WriteReg(R4, 0x00000000)
T6510 001:294.227 - 0.019ms returns 0
T6510 001:294.242 JLINK_WriteReg(R5, 0x00000000)
T6510 001:294.255 - 0.019ms returns 0
T6510 001:294.269 JLINK_WriteReg(R6, 0x00000000)
T6510 001:294.282 - 0.019ms returns 0
T6510 001:294.297 JLINK_WriteReg(R7, 0x00000000)
T6510 001:294.310 - 0.019ms returns 0
T6510 001:294.325 JLINK_WriteReg(R8, 0x00000000)
T6510 001:294.338 - 0.019ms returns 0
T6510 001:294.352 JLINK_WriteReg(R9, 0x20000910)
T6510 001:294.365 - 0.019ms returns 0
T6510 001:294.380 JLINK_WriteReg(R10, 0x00000000)
T6510 001:294.393 - 0.019ms returns 0
T6510 001:294.407 JLINK_WriteReg(R11, 0x00000000)
T6510 001:294.420 - 0.019ms returns 0
T6510 001:294.439 JLINK_WriteReg(R12, 0x00000000)
T6510 001:294.456 - 0.022ms returns 0
T6510 001:294.470 JLINK_WriteReg(R13 (SP), 0x20001000)
T6510 001:294.484 - 0.019ms returns 0
T6510 001:294.499 JLINK_WriteReg(R14, 0x20000001)
T6510 001:294.510 - 0.015ms returns 0
T6510 001:294.520 JLINK_WriteReg(R15 (PC), 0x200000DC)
T6510 001:294.530 - 0.013ms returns 0
T6510 001:294.540 JLINK_WriteReg(XPSR, 0x01000000)
T6510 001:294.549 - 0.013ms returns 0
T6510 001:294.559 JLINK_WriteReg(MSP, 0x20001000)
T6510 001:294.569 - 0.013ms returns 0
T6510 001:294.579 JLINK_WriteReg(PSP, 0x20001000)
T6510 001:294.588 - 0.013ms returns 0
T6510 001:294.598 JLINK_WriteReg(CFBP, 0x00000000)
T6510 001:294.608 - 0.013ms returns 0
T6510 001:294.618 JLINK_SetBPEx(Addr = 0x20000000, Type = 0xFFFFFFF2)
T6510 001:294.627 - 0.014ms returns 0x0000000F
T6510 001:294.638 JLINK_Go()
T6510 001:294.651   CPU_ReadMem(4 bytes @ 0xE0001000)
T6510 001:296.493 - 1.868ms
T6510 001:296.517 JLINK_IsHalted()
T6510 001:296.762 - 0.252ms returns FALSE
T6510 001:296.780 JLINK_HasError()
T6510 001:302.127 JLINK_IsHalted()
T6510 001:302.495 - 0.382ms returns FALSE
T6510 001:302.522 JLINK_HasError()
T6510 001:318.051 JLINK_IsHalted()
T6510 001:319.953   CPU_ReadMem(2 bytes @ 0x20000000)
T6510 001:320.174 - 2.132ms returns TRUE
T6510 001:320.191 JLINK_ReadReg(R15 (PC))
T6510 001:320.202 - 0.014ms returns 0x20000000
T6510 001:320.211 JLINK_ClrBPEx(BPHandle = 0x0000000F)
T6510 001:320.219 - 0.012ms returns 0x00
T6510 001:320.228 JLINK_ReadReg(R0)
T6510 001:320.235 - 0.011ms returns 0x00000000
T6510 001:321.217 JLINK_HasError()
T6510 001:321.237 JLINK_WriteReg(R0, 0x0000D800)
T6510 001:321.249 - 0.017ms returns 0
T6510 001:321.261 JLINK_WriteReg(R1, 0x00000800)
T6510 001:321.272 - 0.015ms returns 0
T6510 001:321.283 JLINK_WriteReg(R2, 0x000000FF)
T6510 001:321.294 - 0.015ms returns 0
